
T347C 000:368 SEGGER J-Link V4.98e Log File (0001ms, 0275ms total)
T347C 000:368 DLL Compiled: May  5 2015 11:00:52 (0001ms, 0275ms total)
T347C 000:368 Logging started @ 2015-12-13 22:54 (0001ms, 0275ms total)
T347C 000:369 JLINK_SetWarnOutHandler(...) (0000ms, 0275ms total)
T347C 000:369 JLINK_OpenEx(...)
Firmware: J-Link ARM V8 compiled Nov 28 2014 13:44:46
Hardware: V8.00
S/N: 17935099
Feature(s): RDI,FlashDL,FlashBP,JFlash  returns O.K. (0273ms, 0548ms total)
T347C 000:642 JLINK_SetErrorOutHandler(...) (0000ms, 0548ms total)
T347C 000:642 JLINK_ExecCommand("ProjectFile = "C:\Users\swat\Google Drive\In working\I Store medicin\Hardware\IOT_Masterv1\Project Outputs for IOT_Masterv3_111215\JLinkSettings.ini"", ...)  returns 0x00 (0002ms, 0550ms total)
T347C 000:670 JLINK_ExecCommand("Device = STM32F103RC", ...)Device "STM32F103RC" selected.  returns 0x00 (0005ms, 0555ms total)
T347C 000:675 JLINK_ExecCommand("DisableConnectionTimeout", ...)  returns 0x01 (0000ms, 0555ms total)
T347C 000:675 JLINK_GetHardwareVersion()  returns 0x13880 (0000ms, 0555ms total)
T347C 000:675 JLINK_GetDLLVersion()  returns 49805 (0000ms, 0555ms total)
T347C 000:675 JLINK_GetFirmwareString(...) (0000ms, 0555ms total)
T347C 000:682 JLINK_GetDLLVersion()  returns 49805 (0000ms, 0555ms total)
T347C 000:682 JLINK_GetCompileDateTime() (0000ms, 0555ms total)
T347C 000:684 JLINK_GetFirmwareString(...) (0000ms, 0555ms total)
T347C 000:685 JLINK_GetHardwareVersion()  returns 0x13880 (0000ms, 0555ms total)
T347C 000:690 JLINK_TIF_Select(JLINKARM_TIF_SWD)  returns 0x00 (0003ms, 0558ms total)
T347C 000:693 JLINK_SetSpeed(5000) (0000ms, 0558ms total)
T347C 000:693 JLINK_GetId() >0x108 TIF>Found SWD-DP with ID 0x1BA01477 >0x0D TIF> >0x28 TIF> >0x0D TIF> >0x28 TIF> >0x0D TIF> >0x21 TIF> >0x0D TIF> >0x28 TIF> >0x0D TIF> >0x28 TIF> >0x0D TIF> >0x28 TIF> >0x0D TIF> >0x21 TIF> >0x0D TIF> >0x21 TIF> >0x0D TIF> >0x28 TIF> >0x0D TIF> >0x21 TIF> >0x0D TIF> >0x21 TIF> >0x108 TIF>Found SWD-DP with ID 0x1BA01477 >0x0D TIF> >0x21 TIF> >0x0D TIF> >0x28 TIF> >0x0D TIF> >0x28 TIF> >0x0D TIF> >0x21 TIF> >0x0D TIF> >0x28 TIF> >0x0D TIF> >0x21 TIF> >0x0D TIF> >0x21 TIF>
 >0x0D TIF> >0x21 TIF> >0x0D TIF> >0x21 TIF> >0x0D TIF> >0x28 TIF> >0x0D TIF> >0x28 TIF> >0x0D TIF> >0x21 TIF> >0x0D TIF> >0x28 TIF> >0x0D TIF> >0x28 TIF> >0x0D TIF> >0x28 TIF> >0x0D TIF> >0x21 TIF> >0x0D TIF> >0x21 TIF> >0x0D TIF> >0x28 TIF> >0x0D TIF> >0x21 TIF> >0x0D TIF> >0x21 TIF>Found Cortex-M3 r1p1, Little endian. -- CPU_WriteMem(4 bytes @ 0xE0002000) -- CPU_ReadMem(4 bytes @ 0xE000EDF0) -- CPU_ReadMem(4 bytes @ 0xE0002000)FPUnit: 6 code (BP) slots and 2 literal slots
 -- CPU_ReadMem(4 bytes @ 0xE000EDFC) -- CPU_ReadMem(4 bytes @ 0xE0001000) -- CPU_WriteMem(4 bytes @ 0xE0001000) -- CPU_ReadMem(4 bytes @ 0xE000ED88) -- CPU_WriteMem(4 bytes @ 0xE000ED88) -- CPU_ReadMem(4 bytes @ 0xE000ED88) -- CPU_WriteMem(4 bytes @ 0xE000ED88)CoreSight components:ROMTbl 0 @ E00FF000 -- CPU_ReadMem(16 bytes @ 0xE00FF000) -- CPU_ReadMem(16 bytes @ 0xE000EFF0) -- CPU_ReadMem(16 bytes @ 0xE000EFE0)ROMTbl 0 [0]: FFF0F000, CID: B105E00D, PID: 001BB000 SCS
 -- CPU_ReadMem(16 bytes @ 0xE0001FF0) -- CPU_ReadMem(16 bytes @ 0xE0001FE0)ROMTbl 0 [1]: FFF02000, CID: B105E00D, PID: 001BB002 DWT -- CPU_ReadMem(16 bytes @ 0xE0002FF0) -- CPU_ReadMem(16 bytes @ 0xE0002FE0)ROMTbl 0 [2]: FFF03000, CID: B105E00D, PID: 000BB003 FPB -- CPU_ReadMem(16 bytes @ 0xE0000FF0) -- CPU_ReadMem(16 bytes @ 0xE0000FE0)ROMTbl 0 [3]: FFF01000, CID: B105E00D, PID: 001BB001 ITM -- CPU_ReadMem(16 bytes @ 0xE00FF010) -- CPU_ReadMem(16 bytes @ 0xE0040FF0)
 -- CPU_ReadMem(16 bytes @ 0xE0040FE0)ROMTbl 0 [4]: FFF41000, CID: B105900D, PID: 001BB923 TPIU-Lite -- CPU_ReadMem(16 bytes @ 0xE0041FF0) -- CPU_ReadMem(16 bytes @ 0xE0041FE0)ROMTbl 0 [5]: FFF42000, CID: B105900D, PID: 101BB924 ETM-M3 >0x0D TIF> >0x21 TIF>  returns 0x1BA01477 (0091ms, 0649ms total)
T347C 000:784 JLINK_GetDLLVersion()  returns 49805 (0000ms, 0649ms total)
T347C 000:784 JLINK_CORE_GetFound()  returns 0x30000FF (0000ms, 0649ms total)
T347C 000:784 JLINK_GetDebugInfo(0x100) -- Value=0xE00FF003  returns 0x00 (0000ms, 0649ms total)
T347C 000:786 JLINK_ReadMem (0xE00FF000, 0x0020 Bytes, ...) -- CPU is running -- CPU_ReadMem(32 bytes @ 0xE00FF000) - Data: 03 F0 F0 FF 03 20 F0 FF 03 30 F0 FF 03 10 F0 FF ...  returns 0x00 (0001ms, 0650ms total)
T347C 000:787 JLINK_ReadMem (0xE000EFF0, 0x0010 Bytes, ...) -- CPU is running -- CPU_ReadMem(16 bytes @ 0xE000EFF0) - Data: 0D 00 00 00 E0 00 00 00 05 00 00 00 B1 00 00 00  returns 0x00 (0001ms, 0651ms total)
T347C 000:788 JLINK_ReadMem (0xE000EFD0, 0x0020 Bytes, ...) -- CPU is running -- CPU_ReadMem(32 bytes @ 0xE000EFD0) - Data: 04 00 00 00 00 00 00 00 00 00 00 00 00 00 00 00 ...  returns 0x00 (0001ms, 0652ms total)
T347C 000:789 JLINK_ReadMem (0xE0001FF0, 0x0010 Bytes, ...) -- CPU is running -- CPU_ReadMem(16 bytes @ 0xE0001FF0) - Data: 0D 00 00 00 E0 00 00 00 05 00 00 00 B1 00 00 00  returns 0x00 (0001ms, 0653ms total)
T347C 000:790 JLINK_ReadMem (0xE0001FD0, 0x0020 Bytes, ...) -- CPU is running -- CPU_ReadMem(32 bytes @ 0xE0001FD0) - Data: 04 00 00 00 00 00 00 00 00 00 00 00 00 00 00 00 ...  returns 0x00 (0001ms, 0654ms total)
T347C 000:791 JLINK_ReadMem (0xE0002FF0, 0x0010 Bytes, ...) -- CPU is running -- CPU_ReadMem(16 bytes @ 0xE0002FF0) - Data: 0D 00 00 00 E0 00 00 00 05 00 00 00 B1 00 00 00  returns 0x00 (0001ms, 0655ms total)
T347C 000:792 JLINK_ReadMem (0xE0002FD0, 0x0020 Bytes, ...) -- CPU is running -- CPU_ReadMem(32 bytes @ 0xE0002FD0) - Data: 04 00 00 00 00 00 00 00 00 00 00 00 00 00 00 00 ...  returns 0x00 (0001ms, 0656ms total)
T347C 000:794 JLINK_ReadMem (0xE0000FF0, 0x0010 Bytes, ...) -- CPU is running -- CPU_ReadMem(16 bytes @ 0xE0000FF0) - Data: 0D 00 00 00 E0 00 00 00 05 00 00 00 B1 00 00 00  returns 0x00 (0001ms, 0658ms total)
T347C 000:795 JLINK_ReadMem (0xE0000FD0, 0x0020 Bytes, ...) -- CPU is running -- CPU_ReadMem(32 bytes @ 0xE0000FD0) - Data: 04 00 00 00 00 00 00 00 00 00 00 00 00 00 00 00 ...  returns 0x00 (0001ms, 0659ms total)
T347C 000:796 JLINK_ReadMem (0xE0040FF0, 0x0010 Bytes, ...) -- CPU is running -- CPU_ReadMem(16 bytes @ 0xE0040FF0) - Data: 0D 00 00 00 90 00 00 00 05 00 00 00 B1 00 00 00  returns 0x00 (0001ms, 0660ms total)
T347C 000:797 JLINK_ReadMem (0xE0040FD0, 0x0020 Bytes, ...) -- CPU is running -- CPU_ReadMem(32 bytes @ 0xE0040FD0) - Data: 04 00 00 00 00 00 00 00 00 00 00 00 00 00 00 00 ...  returns 0x00 (0001ms, 0661ms total)
T347C 000:798 JLINK_ReadMem (0xE0041FF0, 0x0010 Bytes, ...) -- CPU is running -- CPU_ReadMem(16 bytes @ 0xE0041FF0) - Data: 0D 00 00 00 90 00 00 00 05 00 00 00 B1 00 00 00  returns 0x00 (0001ms, 0662ms total)
T347C 000:799 JLINK_ReadMem (0xE0041FD0, 0x0020 Bytes, ...) -- CPU is running -- CPU_ReadMem(32 bytes @ 0xE0041FD0) - Data: 04 00 00 00 00 00 00 00 00 00 00 00 00 00 00 00 ...  returns 0x00 (0001ms, 0663ms total)
T347C 000:800 JLINK_ReadMemU32(0xE000ED00, 0x0001 Items, ...) -- CPU is running -- CPU_ReadMem(4 bytes @ 0xE000ED00) - Data: 31 C2 1F 41  returns 0x01 (0001ms, 0664ms total)
T347C 000:801 JLINK_SetResetType(JLINKARM_RESET_TYPE_NORMAL)  returns JLINKARM_RESET_TYPE_NORMAL (0000ms, 0664ms total)
T347C 000:801 JLINK_Reset() -- CPU is running -- CPU_WriteMem(4 bytes @ 0xE000EDF0) -- CPU is running -- CPU_WriteMem(4 bytes @ 0xE000EDFC) >0x35 TIF> -- CPU is running -- CPU_WriteMem(4 bytes @ 0xE000ED0C) -- CPU is running -- CPU_ReadMem(4 bytes @ 0xE000EDF0) -- CPU is running -- CPU_ReadMem(4 bytes @ 0xE000EDF0) -- CPU is running -- CPU_WriteMem(4 bytes @ 0xE000EDF0) -- CPU is running -- CPU_WriteMem(4 bytes @ 0xE000EDFC) -- CPU is running -- CPU_ReadMem(4 bytes @ 0xE000EDF0)
 -- CPU_WriteMem(4 bytes @ 0xE0002000) -- CPU_ReadMem(4 bytes @ 0xE000EDFC) -- CPU_ReadMem(4 bytes @ 0xE0001000) (0025ms, 0689ms total)
T347C 000:826 JLINK_Halt()  returns 0x00 (0000ms, 0689ms total)
T347C 000:826 JLINK_IsHalted()  returns TRUE (0000ms, 0689ms total)
T347C 000:826 JLINK_ReadMemU32(0xE000EDF0, 0x0001 Items, ...) -- CPU_ReadMem(4 bytes @ 0xE000EDF0) - Data: 03 00 03 00  returns 0x01 (0001ms, 0690ms total)
T347C 000:827 JLINK_WriteU32(0xE000EDF0, 0xA05F0003) -- CPU_WriteMem(4 bytes @ 0xE000EDF0)  returns 0x00 (0001ms, 0691ms total)
T347C 000:828 JLINK_WriteU32(0xE000EDFC, 0x01000000) -- CPU_WriteMem(4 bytes @ 0xE000EDFC)  returns 0x00 (0001ms, 0692ms total)
T347C 000:831 JLINK_GetHWStatus(...)  returns 0x00 (0001ms, 0693ms total)
T347C 000:834 JLINK_GetNumBPUnits(Type = 0xFFFFFF00)  returns 0x06 (0000ms, 0693ms total)
T347C 000:834 JLINK_GetNumBPUnits(Type = 0xF0)  returns 0x2000 (0000ms, 0693ms total)
T347C 000:834 JLINK_GetNumWPUnits()  returns 0x04 (0000ms, 0693ms total)
T347C 000:836 JLINK_GetSpeed()  returns 0xFA0 (0000ms, 0693ms total)
T347C 000:837 JLINK_ReadMemU32(0xE000E004, 0x0001 Items, ...) -- CPU_ReadMem(4 bytes @ 0xE000E004) - Data: 01 00 00 00  returns 0x01 (0001ms, 0694ms total)
T347C 000:838 JLINK_ReadMemU32(0xE000E004, 0x0001 Items, ...) -- CPU_ReadMem(4 bytes @ 0xE000E004) - Data: 01 00 00 00  returns 0x01 (0001ms, 0695ms total)
T347C 000:839 JLINK_WriteMem(0xE0001000, 0x001C Bytes, ...) - Data: 01 00 00 00 00 00 00 00 00 00 00 00 00 00 00 00 ... -- CPU_WriteMem(28 bytes @ 0xE0001000)  returns 0x1C (0001ms, 0696ms total)
T347C 000:840 JLINK_ReadMem (0xE0001000, 0x001C Bytes, ...) -- CPU_ReadMem(28 bytes @ 0xE0001000) - Data: 01 00 00 40 00 00 00 00 00 00 00 00 00 00 00 00 ...  returns 0x00 (0002ms, 0698ms total)
T347C 000:842 JLINK_Halt()  returns 0x00 (0000ms, 0698ms total)
T347C 000:842 JLINK_IsHalted()  returns TRUE (0000ms, 0698ms total)
T347C 000:844 JLINK_WriteMem(0x20000000, 0x0164 Bytes, ...) - Data: 00 BE 0A E0 0D 78 2D 06 68 40 08 24 40 00 00 D3 ... -- CPU_WriteMem(356 bytes @ 0x20000000)  returns 0x164 (0004ms, 0702ms total)
T347C 000:848 JLINK_WriteReg(R0, 0x08000000)  returns 0x00 (0000ms, 0702ms total)
T347C 000:848 JLINK_WriteReg(R1, 0x044AA200)  returns 0x00 (0000ms, 0702ms total)
T347C 000:848 JLINK_WriteReg(R2, 0x00000001)  returns 0x00 (0000ms, 0702ms total)
T347C 000:848 JLINK_WriteReg(R3, 0x00000000)  returns 0x00 (0000ms, 0702ms total)
T347C 000:848 JLINK_WriteReg(R4, 0x00000000)  returns 0x00 (0000ms, 0702ms total)
T347C 000:848 JLINK_WriteReg(R5, 0x00000000)  returns 0x00 (0000ms, 0702ms total)
T347C 000:848 JLINK_WriteReg(R6, 0x00000000)  returns 0x00 (0000ms, 0702ms total)
T347C 000:848 JLINK_WriteReg(R7, 0x00000000)  returns 0x00 (0000ms, 0702ms total)
T347C 000:848 JLINK_WriteReg(R8, 0x00000000)  returns 0x00 (0000ms, 0702ms total)
T347C 000:848 JLINK_WriteReg(R9, 0x20000160)  returns 0x00 (0000ms, 0702ms total)
T347C 000:848 JLINK_WriteReg(R10, 0x00000000)  returns 0x00 (0000ms, 0702ms total)
T347C 000:848 JLINK_WriteReg(R11, 0x00000000)  returns 0x00 (0000ms, 0702ms total)
T347C 000:848 JLINK_WriteReg(R12, 0x00000000)  returns 0x00 (0000ms, 0702ms total)
T347C 000:848 JLINK_WriteReg(R13 (SP), 0x20001000)  returns 0x00 (0000ms, 0702ms total)
T347C 000:848 JLINK_WriteReg(R14, 0x20000001)  returns 0x00 (0000ms, 0702ms total)
T347C 000:848 JLINK_WriteReg(R15 (PC), 0x20000038)  returns 0x00 (0000ms, 0702ms total)
T347C 000:848 JLINK_WriteReg(XPSR, 0x01000000)  returns 0x00 (0000ms, 0702ms total)
T347C 000:848 JLINK_WriteReg(MSP, 0x20001000)  returns 0x00 (0000ms, 0702ms total)
T347C 000:848 JLINK_WriteReg(PSP, 0x20001000)  returns 0x00 (0000ms, 0702ms total)
T347C 000:848 JLINK_WriteReg(CFBP, 0x00000000)  returns 0x00 (0000ms, 0702ms total)
T347C 000:848 JLINK_SetBPEx(Addr = 0x20000000, Type = 0xFFFFFFF2) -- CPU_ReadMem(2 bytes @ 0x20000000)  returns 0x00000001 (0001ms, 0703ms total)
T347C 000:849 JLINK_Go() -- CPU_WriteMem(2 bytes @ 0x20000000) -- CPU_ReadMem(4 bytes @ 0xE0001000) -- CPU_WriteMem(4 bytes @ 0xE0002008) -- CPU_WriteMem(4 bytes @ 0xE000200C) -- CPU_WriteMem(4 bytes @ 0xE0002010) -- CPU_WriteMem(4 bytes @ 0xE0002014) -- CPU_WriteMem(4 bytes @ 0xE0002018) -- CPU_WriteMem(4 bytes @ 0xE000201C) -- CPU_WriteMem(4 bytes @ 0xE0001004) (0009ms, 0712ms total)
T347C 000:858 JLINK_IsHalted() -- CPU_ReadMem(2 bytes @ 0x20000000)  returns TRUE (0003ms, 0715ms total)
T347C 000:861 JLINK_ReadReg(R15 (PC))  returns 0x20000000 (0000ms, 0712ms total)
T347C 000:861 JLINK_ClrBPEx(BPHandle = 0x00000001)  returns 0x00 (0000ms, 0712ms total)
T347C 000:861 JLINK_ReadReg(R0)  returns 0x00000000 (0000ms, 0712ms total)
T347C 000:861 JLINK_WriteReg(R0, 0x08000000)  returns 0x00 (0000ms, 0712ms total)
T347C 000:861 JLINK_WriteReg(R1, 0x044AA200)  returns 0x00 (0000ms, 0712ms total)
T347C 000:861 JLINK_WriteReg(R2, 0x00000001)  returns 0x00 (0001ms, 0713ms total)
T347C 000:862 JLINK_WriteReg(R3, 0x00000000)  returns 0x00 (0000ms, 0713ms total)
T347C 000:862 JLINK_WriteReg(R4, 0x00000000)  returns 0x00 (0000ms, 0713ms total)
T347C 000:862 JLINK_WriteReg(R5, 0x00000000)  returns 0x00 (0000ms, 0713ms total)
T347C 000:862 JLINK_WriteReg(R6, 0x00000000)  returns 0x00 (0000ms, 0713ms total)
T347C 000:862 JLINK_WriteReg(R7, 0x00000000)  returns 0x00 (0000ms, 0713ms total)
T347C 000:862 JLINK_WriteReg(R8, 0x00000000)  returns 0x00 (0000ms, 0713ms total)
T347C 000:862 JLINK_WriteReg(R9, 0x20000160)  returns 0x00 (0000ms, 0713ms total)
T347C 000:862 JLINK_WriteReg(R10, 0x00000000)  returns 0x00 (0000ms, 0713ms total)
T347C 000:862 JLINK_WriteReg(R11, 0x00000000)  returns 0x00 (0000ms, 0713ms total)
T347C 000:862 JLINK_WriteReg(R12, 0x00000000)  returns 0x00 (0000ms, 0713ms total)
T347C 000:862 JLINK_WriteReg(R13 (SP), 0x20001000)  returns 0x00 (0000ms, 0713ms total)
T347C 000:862 JLINK_WriteReg(R14, 0x20000001)  returns 0x00 (0000ms, 0713ms total)
T347C 000:862 JLINK_WriteReg(R15 (PC), 0x2000007C)  returns 0x00 (0000ms, 0713ms total)
T347C 000:862 JLINK_WriteReg(XPSR, 0x01000000)  returns 0x00 (0000ms, 0713ms total)
T347C 000:862 JLINK_WriteReg(MSP, 0x20001000)  returns 0x00 (0000ms, 0713ms total)
T347C 000:862 JLINK_WriteReg(PSP, 0x20001000)  returns 0x00 (0000ms, 0713ms total)
T347C 000:862 JLINK_WriteReg(CFBP, 0x00000000)  returns 0x00 (0000ms, 0713ms total)
T347C 000:862 JLINK_SetBPEx(Addr = 0x20000000, Type = 0xFFFFFFF2)  returns 0x00000002 (0000ms, 0713ms total)
T347C 000:862 JLINK_Go() -- CPU_ReadMem(4 bytes @ 0xE0001000) (0003ms, 0716ms total)
T347C 000:865 JLINK_IsHalted()  returns FALSE (0001ms, 0717ms total)
T347C 000:937 JLINK_IsHalted() -- CPU_ReadMem(2 bytes @ 0x20000000)  returns TRUE (0004ms, 0720ms total)
T347C 000:941 JLINK_ReadReg(R15 (PC))  returns 0x20000000 (0000ms, 0716ms total)
T347C 000:941 JLINK_ClrBPEx(BPHandle = 0x00000002)  returns 0x00 (0000ms, 0716ms total)
T347C 000:941 JLINK_ReadReg(R0)  returns 0x00000000 (0000ms, 0716ms total)
T347C 000:991 JLINK_WriteReg(R0, 0x00000001)  returns 0x00 (0000ms, 0716ms total)
T347C 000:991 JLINK_WriteReg(R1, 0x044AA200)  returns 0x00 (0000ms, 0716ms total)
T347C 000:991 JLINK_WriteReg(R2, 0x00000001)  returns 0x00 (0000ms, 0716ms total)
T347C 000:991 JLINK_WriteReg(R3, 0x00000000)  returns 0x00 (0000ms, 0716ms total)
T347C 000:991 JLINK_WriteReg(R4, 0x00000000)  returns 0x00 (0000ms, 0716ms total)
T347C 000:991 JLINK_WriteReg(R5, 0x00000000)  returns 0x00 (0000ms, 0716ms total)
T347C 000:991 JLINK_WriteReg(R6, 0x00000000)  returns 0x00 (0000ms, 0716ms total)
T347C 000:991 JLINK_WriteReg(R7, 0x00000000)  returns 0x00 (0000ms, 0716ms total)
T347C 000:991 JLINK_WriteReg(R8, 0x00000000)  returns 0x00 (0000ms, 0716ms total)
T347C 000:991 JLINK_WriteReg(R9, 0x20000160)  returns 0x00 (0000ms, 0716ms total)
T347C 000:991 JLINK_WriteReg(R10, 0x00000000)  returns 0x00 (0000ms, 0716ms total)
T347C 000:991 JLINK_WriteReg(R11, 0x00000000)  returns 0x00 (0000ms, 0716ms total)
T347C 000:991 JLINK_WriteReg(R12, 0x00000000)  returns 0x00 (0000ms, 0716ms total)
T347C 000:991 JLINK_WriteReg(R13 (SP), 0x20001000)  returns 0x00 (0001ms, 0717ms total)
T347C 000:992 JLINK_WriteReg(R14, 0x20000001)  returns 0x00 (0000ms, 0717ms total)
T347C 000:992 JLINK_WriteReg(R15 (PC), 0x2000006A)  returns 0x00 (0000ms, 0717ms total)
T347C 000:992 JLINK_WriteReg(XPSR, 0x01000000)  returns 0x00 (0000ms, 0717ms total)
T347C 000:992 JLINK_WriteReg(MSP, 0x20001000)  returns 0x00 (0000ms, 0717ms total)
T347C 000:992 JLINK_WriteReg(PSP, 0x20001000)  returns 0x00 (0000ms, 0717ms total)
T347C 000:992 JLINK_WriteReg(CFBP, 0x00000000)  returns 0x00 (0000ms, 0717ms total)
T347C 000:992 JLINK_SetBPEx(Addr = 0x20000000, Type = 0xFFFFFFF2)  returns 0x00000003 (0000ms, 0717ms total)
T347C 000:992 JLINK_Go() -- CPU_ReadMem(4 bytes @ 0xE0001000) (0003ms, 0720ms total)
T347C 000:995 JLINK_IsHalted() -- CPU_ReadMem(2 bytes @ 0x20000000)  returns TRUE (0004ms, 0724ms total)
T347C 000:999 JLINK_ReadReg(R15 (PC))  returns 0x20000000 (0000ms, 0720ms total)
T347C 000:999 JLINK_ClrBPEx(BPHandle = 0x00000003)  returns 0x00 (0001ms, 0721ms total)
T347C 001:000 JLINK_ReadReg(R0)  returns 0x00000000 (0000ms, 0721ms total)
T347C 001:002 JLINK_WriteMem(0x20000000, 0x0164 Bytes, ...) - Data: 00 BE 0A E0 0D 78 2D 06 68 40 08 24 40 00 00 D3 ... -- CPU_WriteMem(356 bytes @ 0x20000000)  returns 0x164 (0004ms, 0725ms total)
T347C 001:006 JLINK_WriteReg(R0, 0x08000000)  returns 0x00 (0000ms, 0725ms total)
T347C 001:006 JLINK_WriteReg(R1, 0x044AA200)  returns 0x00 (0000ms, 0725ms total)
T347C 001:006 JLINK_WriteReg(R2, 0x00000002)  returns 0x00 (0000ms, 0725ms total)
T347C 001:006 JLINK_WriteReg(R3, 0x00000000)  returns 0x00 (0000ms, 0725ms total)
T347C 001:006 JLINK_WriteReg(R4, 0x00000000)  returns 0x00 (0000ms, 0725ms total)
T347C 001:006 JLINK_WriteReg(R5, 0x00000000)  returns 0x00 (0000ms, 0725ms total)
T347C 001:006 JLINK_WriteReg(R6, 0x00000000)  returns 0x00 (0000ms, 0725ms total)
T347C 001:006 JLINK_WriteReg(R7, 0x00000000)  returns 0x00 (0000ms, 0725ms total)
T347C 001:006 JLINK_WriteReg(R8, 0x00000000)  returns 0x00 (0000ms, 0725ms total)
T347C 001:006 JLINK_WriteReg(R9, 0x20000160)  returns 0x00 (0000ms, 0725ms total)
T347C 001:006 JLINK_WriteReg(R10, 0x00000000)  returns 0x00 (0000ms, 0725ms total)
T347C 001:006 JLINK_WriteReg(R11, 0x00000000)  returns 0x00 (0000ms, 0725ms total)
T347C 001:006 JLINK_WriteReg(R12, 0x00000000)  returns 0x00 (0000ms, 0725ms total)
T347C 001:006 JLINK_WriteReg(R13 (SP), 0x20001000)  returns 0x00 (0000ms, 0725ms total)
T347C 001:006 JLINK_WriteReg(R14, 0x20000001)  returns 0x00 (0001ms, 0726ms total)
T347C 001:007 JLINK_WriteReg(R15 (PC), 0x20000038)  returns 0x00 (0000ms, 0726ms total)
T347C 001:007 JLINK_WriteReg(XPSR, 0x01000000)  returns 0x00 (0000ms, 0726ms total)
T347C 001:007 JLINK_WriteReg(MSP, 0x20001000)  returns 0x00 (0000ms, 0726ms total)
T347C 001:007 JLINK_WriteReg(PSP, 0x20001000)  returns 0x00 (0000ms, 0726ms total)
T347C 001:007 JLINK_WriteReg(CFBP, 0x00000000)  returns 0x00 (0000ms, 0726ms total)
T347C 001:007 JLINK_SetBPEx(Addr = 0x20000000, Type = 0xFFFFFFF2) -- CPU_ReadMem(2 bytes @ 0x20000000)  returns 0x00000004 (0001ms, 0727ms total)
T347C 001:008 JLINK_Go() -- CPU_WriteMem(2 bytes @ 0x20000000) -- CPU_ReadMem(4 bytes @ 0xE0001000) (0003ms, 0730ms total)
T347C 001:011 JLINK_IsHalted() -- CPU_ReadMem(2 bytes @ 0x20000000)  returns TRUE (0004ms, 0734ms total)
T347C 001:015 JLINK_ReadReg(R15 (PC))  returns 0x20000000 (0000ms, 0730ms total)
T347C 001:015 JLINK_ClrBPEx(BPHandle = 0x00000004)  returns 0x00 (0000ms, 0730ms total)
T347C 001:015 JLINK_ReadReg(R0)  returns 0x00000000 (0000ms, 0730ms total)
T347C 001:015 JLINK_WriteMem(0x20000164, 0x0400 Bytes, ...) - Data: 18 05 00 20 45 01 00 08 4D 01 00 08 4F 01 00 08 ... -- CPU_WriteMem(1024 bytes @ 0x20000164)  returns 0x400 (0007ms, 0737ms total)
T347C 001:022 JLINK_WriteReg(R0, 0x08000000)  returns 0x00 (0001ms, 0738ms total)
T347C 001:023 JLINK_WriteReg(R1, 0x00000400)  returns 0x00 (0000ms, 0738ms total)
T347C 001:023 JLINK_WriteReg(R2, 0x20000164)  returns 0x00 (0000ms, 0738ms total)
T347C 001:023 JLINK_WriteReg(R3, 0x00000000)  returns 0x00 (0000ms, 0738ms total)
T347C 001:023 JLINK_WriteReg(R4, 0x00000000)  returns 0x00 (0000ms, 0738ms total)
T347C 001:023 JLINK_WriteReg(R5, 0x00000000)  returns 0x00 (0000ms, 0738ms total)
T347C 001:023 JLINK_WriteReg(R6, 0x00000000)  returns 0x00 (0000ms, 0738ms total)
T347C 001:023 JLINK_WriteReg(R7, 0x00000000)  returns 0x00 (0000ms, 0738ms total)
T347C 001:023 JLINK_WriteReg(R8, 0x00000000)  returns 0x00 (0000ms, 0738ms total)
T347C 001:023 JLINK_WriteReg(R9, 0x20000160)  returns 0x00 (0000ms, 0738ms total)
T347C 001:023 JLINK_WriteReg(R10, 0x00000000)  returns 0x00 (0000ms, 0738ms total)
T347C 001:023 JLINK_WriteReg(R11, 0x00000000)  returns 0x00 (0000ms, 0738ms total)
T347C 001:023 JLINK_WriteReg(R12, 0x00000000)  returns 0x00 (0000ms, 0738ms total)
T347C 001:023 JLINK_WriteReg(R13 (SP), 0x20001000)  returns 0x00 (0000ms, 0738ms total)
T347C 001:023 JLINK_WriteReg(R14, 0x20000001)  returns 0x00 (0000ms, 0738ms total)
T347C 001:023 JLINK_WriteReg(R15 (PC), 0x200000F4)  returns 0x00 (0000ms, 0738ms total)
T347C 001:023 JLINK_WriteReg(XPSR, 0x01000000)  returns 0x00 (0000ms, 0738ms total)
T347C 001:023 JLINK_WriteReg(MSP, 0x20001000)  returns 0x00 (0000ms, 0738ms total)
T347C 001:023 JLINK_WriteReg(PSP, 0x20001000)  returns 0x00 (0000ms, 0738ms total)
T347C 001:023 JLINK_WriteReg(CFBP, 0x00000000)  returns 0x00 (0000ms, 0738ms total)
T347C 001:023 JLINK_SetBPEx(Addr = 0x20000000, Type = 0xFFFFFFF2)  returns 0x00000005 (0000ms, 0738ms total)
T347C 001:023 JLINK_Go() -- CPU_ReadMem(4 bytes @ 0xE0001000) (0003ms, 0741ms total)
T347C 001:026 JLINK_IsHalted()  returns FALSE (0001ms, 0742ms total)
T347C 001:144 JLINK_IsHalted() -- CPU_ReadMem(2 bytes @ 0x20000000)  returns TRUE (0005ms, 0746ms total)
T347C 001:149 JLINK_ReadReg(R15 (PC))  returns 0x20000000 (0000ms, 0741ms total)
T347C 001:149 JLINK_ClrBPEx(BPHandle = 0x00000005)  returns 0x00 (0000ms, 0741ms total)
T347C 001:149 JLINK_ReadReg(R0)  returns 0x00000000 (0000ms, 0741ms total)
T347C 001:149 JLINK_WriteMem(0x20000164, 0x0400 Bytes, ...) - Data: 49 08 4F EA 30 00 00 19 51 41 32 46 2B 46 03 B0 ... -- CPU_WriteMem(1024 bytes @ 0x20000164)  returns 0x400 (0007ms, 0748ms total)
T347C 001:156 JLINK_WriteReg(R0, 0x08000400)  returns 0x00 (0000ms, 0748ms total)
T347C 001:156 JLINK_WriteReg(R1, 0x00000400)  returns 0x00 (0000ms, 0748ms total)
T347C 001:156 JLINK_WriteReg(R2, 0x20000164)  returns 0x00 (0000ms, 0748ms total)
T347C 001:156 JLINK_WriteReg(R3, 0x00000000)  returns 0x00 (0000ms, 0748ms total)
T347C 001:156 JLINK_WriteReg(R4, 0x00000000)  returns 0x00 (0000ms, 0748ms total)
T347C 001:156 JLINK_WriteReg(R5, 0x00000000)  returns 0x00 (0000ms, 0748ms total)
T347C 001:156 JLINK_WriteReg(R6, 0x00000000)  returns 0x00 (0000ms, 0748ms total)
T347C 001:156 JLINK_WriteReg(R7, 0x00000000)  returns 0x00 (0000ms, 0748ms total)
T347C 001:156 JLINK_WriteReg(R8, 0x00000000)  returns 0x00 (0000ms, 0748ms total)
T347C 001:156 JLINK_WriteReg(R9, 0x20000160)  returns 0x00 (0000ms, 0748ms total)
T347C 001:156 JLINK_WriteReg(R10, 0x00000000)  returns 0x00 (0000ms, 0748ms total)
T347C 001:156 JLINK_WriteReg(R11, 0x00000000)  returns 0x00 (0000ms, 0748ms total)
T347C 001:156 JLINK_WriteReg(R12, 0x00000000)  returns 0x00 (0000ms, 0748ms total)
T347C 001:156 JLINK_WriteReg(R13 (SP), 0x20001000)  returns 0x00 (0000ms, 0748ms total)
T347C 001:156 JLINK_WriteReg(R14, 0x20000001)  returns 0x00 (0000ms, 0748ms total)
T347C 001:156 JLINK_WriteReg(R15 (PC), 0x200000F4)  returns 0x00 (0000ms, 0748ms total)
T347C 001:156 JLINK_WriteReg(XPSR, 0x01000000)  returns 0x00 (0000ms, 0748ms total)
T347C 001:156 JLINK_WriteReg(MSP, 0x20001000)  returns 0x00 (0000ms, 0748ms total)
T347C 001:156 JLINK_WriteReg(PSP, 0x20001000)  returns 0x00 (0000ms, 0748ms total)
T347C 001:156 JLINK_WriteReg(CFBP, 0x00000000)  returns 0x00 (0000ms, 0748ms total)
T347C 001:156 JLINK_SetBPEx(Addr = 0x20000000, Type = 0xFFFFFFF2)  returns 0x00000006 (0000ms, 0748ms total)
T347C 001:156 JLINK_Go() -- CPU_ReadMem(4 bytes @ 0xE0001000) (0004ms, 0752ms total)
T347C 001:160 JLINK_IsHalted()  returns FALSE (0001ms, 0753ms total)
T347C 001:226 JLINK_IsHalted() -- CPU_ReadMem(2 bytes @ 0x20000000)  returns TRUE (0004ms, 0756ms total)
T347C 001:230 JLINK_ReadReg(R15 (PC))  returns 0x20000000 (0000ms, 0752ms total)
T347C 001:230 JLINK_ClrBPEx(BPHandle = 0x00000006)  returns 0x00 (0000ms, 0752ms total)
T347C 001:230 JLINK_ReadReg(R0)  returns 0x00000000 (0000ms, 0752ms total)
T347C 001:231 JLINK_WriteMem(0x20000164, 0x0400 Bytes, ...) - Data: 70 47 49 B1 CC F1 20 04 21 FA 04 F4 11 FA 0C F1 ... -- CPU_WriteMem(1024 bytes @ 0x20000164)  returns 0x400 (0007ms, 0759ms total)
T347C 001:238 JLINK_WriteReg(R0, 0x08000800)  returns 0x00 (0000ms, 0759ms total)
T347C 001:238 JLINK_WriteReg(R1, 0x00000400)  returns 0x00 (0000ms, 0759ms total)
T347C 001:238 JLINK_WriteReg(R2, 0x20000164)  returns 0x00 (0000ms, 0759ms total)
T347C 001:238 JLINK_WriteReg(R3, 0x00000000)  returns 0x00 (0000ms, 0759ms total)
T347C 001:238 JLINK_WriteReg(R4, 0x00000000)  returns 0x00 (0000ms, 0759ms total)
T347C 001:238 JLINK_WriteReg(R5, 0x00000000)  returns 0x00 (0000ms, 0759ms total)
T347C 001:238 JLINK_WriteReg(R6, 0x00000000)  returns 0x00 (0000ms, 0759ms total)
T347C 001:238 JLINK_WriteReg(R7, 0x00000000)  returns 0x00 (0000ms, 0759ms total)
T347C 001:238 JLINK_WriteReg(R8, 0x00000000)  returns 0x00 (0000ms, 0759ms total)
T347C 001:238 JLINK_WriteReg(R9, 0x20000160)  returns 0x00 (0000ms, 0759ms total)
T347C 001:238 JLINK_WriteReg(R10, 0x00000000)  returns 0x00 (0000ms, 0759ms total)
T347C 001:238 JLINK_WriteReg(R11, 0x00000000)  returns 0x00 (0000ms, 0759ms total)
T347C 001:238 JLINK_WriteReg(R12, 0x00000000)  returns 0x00 (0000ms, 0759ms total)
T347C 001:238 JLINK_WriteReg(R13 (SP), 0x20001000)  returns 0x00 (0000ms, 0759ms total)
T347C 001:238 JLINK_WriteReg(R14, 0x20000001)  returns 0x00 (0000ms, 0759ms total)
T347C 001:238 JLINK_WriteReg(R15 (PC), 0x200000F4)  returns 0x00 (0000ms, 0759ms total)
T347C 001:238 JLINK_WriteReg(XPSR, 0x01000000)  returns 0x00 (0000ms, 0759ms total)
T347C 001:238 JLINK_WriteReg(MSP, 0x20001000)  returns 0x00 (0000ms, 0759ms total)
T347C 001:238 JLINK_WriteReg(PSP, 0x20001000)  returns 0x00 (0000ms, 0759ms total)
T347C 001:238 JLINK_WriteReg(CFBP, 0x00000000)  returns 0x00 (0000ms, 0759ms total)
T347C 001:238 JLINK_SetBPEx(Addr = 0x20000000, Type = 0xFFFFFFF2)  returns 0x00000007 (0000ms, 0759ms total)
T347C 001:238 JLINK_Go() -- CPU_ReadMem(4 bytes @ 0xE0001000) (0003ms, 0762ms total)
T347C 001:241 JLINK_IsHalted()  returns FALSE (0001ms, 0763ms total)
T347C 001:309 JLINK_IsHalted() -- CPU_ReadMem(2 bytes @ 0x20000000)  returns TRUE (0004ms, 0766ms total)
T347C 001:313 JLINK_ReadReg(R15 (PC))  returns 0x20000000 (0000ms, 0762ms total)
T347C 001:313 JLINK_ClrBPEx(BPHandle = 0x00000007)  returns 0x00 (0000ms, 0762ms total)
T347C 001:313 JLINK_ReadReg(R0)  returns 0x00000000 (0000ms, 0762ms total)
T347C 001:313 JLINK_WriteMem(0x20000164, 0x0400 Bytes, ...) - Data: 8B 40 80 4C 23 61 05 E0 01 F1 10 03 01 24 9C 40 ... -- CPU_WriteMem(1024 bytes @ 0x20000164)  returns 0x400 (0008ms, 0770ms total)
T347C 001:321 JLINK_WriteReg(R0, 0x08000C00)  returns 0x00 (0000ms, 0770ms total)
T347C 001:321 JLINK_WriteReg(R1, 0x00000400)  returns 0x00 (0000ms, 0770ms total)
T347C 001:321 JLINK_WriteReg(R2, 0x20000164)  returns 0x00 (0000ms, 0770ms total)
T347C 001:321 JLINK_WriteReg(R3, 0x00000000)  returns 0x00 (0000ms, 0770ms total)
T347C 001:321 JLINK_WriteReg(R4, 0x00000000)  returns 0x00 (0000ms, 0770ms total)
T347C 001:321 JLINK_WriteReg(R5, 0x00000000)  returns 0x00 (0000ms, 0770ms total)
T347C 001:321 JLINK_WriteReg(R6, 0x00000000)  returns 0x00 (0000ms, 0770ms total)
T347C 001:321 JLINK_WriteReg(R7, 0x00000000)  returns 0x00 (0000ms, 0770ms total)
T347C 001:321 JLINK_WriteReg(R8, 0x00000000)  returns 0x00 (0000ms, 0770ms total)
T347C 001:321 JLINK_WriteReg(R9, 0x20000160)  returns 0x00 (0000ms, 0770ms total)
T347C 001:321 JLINK_WriteReg(R10, 0x00000000)  returns 0x00 (0000ms, 0770ms total)
T347C 001:321 JLINK_WriteReg(R11, 0x00000000)  returns 0x00 (0000ms, 0770ms total)
T347C 001:321 JLINK_WriteReg(R12, 0x00000000)  returns 0x00 (0000ms, 0770ms total)
T347C 001:321 JLINK_WriteReg(R13 (SP), 0x20001000)  returns 0x00 (0000ms, 0770ms total)
T347C 001:321 JLINK_WriteReg(R14, 0x20000001)  returns 0x00 (0000ms, 0770ms total)
T347C 001:321 JLINK_WriteReg(R15 (PC), 0x200000F4)  returns 0x00 (0000ms, 0770ms total)
T347C 001:321 JLINK_WriteReg(XPSR, 0x01000000)  returns 0x00 (0000ms, 0770ms total)
T347C 001:321 JLINK_WriteReg(MSP, 0x20001000)  returns 0x00 (0000ms, 0770ms total)
T347C 001:321 JLINK_WriteReg(PSP, 0x20001000)  returns 0x00 (0000ms, 0770ms total)
T347C 001:321 JLINK_WriteReg(CFBP, 0x00000000)  returns 0x00 (0000ms, 0770ms total)
T347C 001:321 JLINK_SetBPEx(Addr = 0x20000000, Type = 0xFFFFFFF2)  returns 0x00000008 (0000ms, 0770ms total)
T347C 001:321 JLINK_Go() -- CPU_ReadMem(4 bytes @ 0xE0001000) (0004ms, 0774ms total)
T347C 001:325 JLINK_IsHalted()  returns FALSE (0000ms, 0774ms total)
T347C 001:393 JLINK_IsHalted() -- CPU_ReadMem(2 bytes @ 0x20000000)  returns TRUE (0004ms, 0778ms total)
T347C 001:397 JLINK_ReadReg(R15 (PC))  returns 0x20000000 (0000ms, 0774ms total)
T347C 001:397 JLINK_ClrBPEx(BPHandle = 0x00000008)  returns 0x00 (0000ms, 0774ms total)
T347C 001:397 JLINK_ReadReg(R0)  returns 0x00000000 (0000ms, 0774ms total)
T347C 001:397 JLINK_WriteMem(0x20000164, 0x0400 Bytes, ...) - Data: FE 73 1A 40 02 60 70 47 01 68 4F F6 FE 72 11 40 ... -- CPU_WriteMem(1024 bytes @ 0x20000164)  returns 0x400 (0007ms, 0781ms total)
T347C 001:404 JLINK_WriteReg(R0, 0x08001000)  returns 0x00 (0000ms, 0781ms total)
T347C 001:404 JLINK_WriteReg(R1, 0x00000400)  returns 0x00 (0001ms, 0782ms total)
T347C 001:405 JLINK_WriteReg(R2, 0x20000164)  returns 0x00 (0000ms, 0782ms total)
T347C 001:405 JLINK_WriteReg(R3, 0x00000000)  returns 0x00 (0000ms, 0782ms total)
T347C 001:405 JLINK_WriteReg(R4, 0x00000000)  returns 0x00 (0000ms, 0782ms total)
T347C 001:405 JLINK_WriteReg(R5, 0x00000000)  returns 0x00 (0000ms, 0782ms total)
T347C 001:405 JLINK_WriteReg(R6, 0x00000000)  returns 0x00 (0000ms, 0782ms total)
T347C 001:405 JLINK_WriteReg(R7, 0x00000000)  returns 0x00 (0000ms, 0782ms total)
T347C 001:405 JLINK_WriteReg(R8, 0x00000000)  returns 0x00 (0000ms, 0782ms total)
T347C 001:405 JLINK_WriteReg(R9, 0x20000160)  returns 0x00 (0000ms, 0782ms total)
T347C 001:405 JLINK_WriteReg(R10, 0x00000000)  returns 0x00 (0000ms, 0782ms total)
T347C 001:405 JLINK_WriteReg(R11, 0x00000000)  returns 0x00 (0000ms, 0782ms total)
T347C 001:405 JLINK_WriteReg(R12, 0x00000000)  returns 0x00 (0000ms, 0782ms total)
T347C 001:405 JLINK_WriteReg(R13 (SP), 0x20001000)  returns 0x00 (0000ms, 0782ms total)
T347C 001:405 JLINK_WriteReg(R14, 0x20000001)  returns 0x00 (0000ms, 0782ms total)
T347C 001:405 JLINK_WriteReg(R15 (PC), 0x200000F4)  returns 0x00 (0000ms, 0782ms total)
T347C 001:405 JLINK_WriteReg(XPSR, 0x01000000)  returns 0x00 (0000ms, 0782ms total)
T347C 001:405 JLINK_WriteReg(MSP, 0x20001000)  returns 0x00 (0000ms, 0782ms total)
T347C 001:405 JLINK_WriteReg(PSP, 0x20001000)  returns 0x00 (0000ms, 0782ms total)
T347C 001:405 JLINK_WriteReg(CFBP, 0x00000000)  returns 0x00 (0000ms, 0782ms total)
T347C 001:405 JLINK_SetBPEx(Addr = 0x20000000, Type = 0xFFFFFFF2)  returns 0x00000009 (0000ms, 0782ms total)
T347C 001:405 JLINK_Go() -- CPU_ReadMem(4 bytes @ 0xE0001000) (0003ms, 0785ms total)
T347C 001:408 JLINK_IsHalted()  returns FALSE (0001ms, 0786ms total)
T347C 001:478 JLINK_IsHalted() -- CPU_ReadMem(2 bytes @ 0x20000000)  returns TRUE (0005ms, 0790ms total)
T347C 001:483 JLINK_ReadReg(R15 (PC))  returns 0x20000000 (0000ms, 0785ms total)
T347C 001:483 JLINK_ClrBPEx(BPHandle = 0x00000009)  returns 0x00 (0000ms, 0785ms total)
T347C 001:483 JLINK_ReadReg(R0)  returns 0x00000000 (0000ms, 0785ms total)
T347C 001:483 JLINK_WriteMem(0x20000164, 0x0400 Bytes, ...) - Data: 01 21 41 48 01 F0 06 F8 06 E0 20 1E A4 F1 01 01 ... -- CPU_WriteMem(1024 bytes @ 0x20000164)  returns 0x400 (0007ms, 0792ms total)
T347C 001:490 JLINK_WriteReg(R0, 0x08001400)  returns 0x00 (0000ms, 0792ms total)
T347C 001:490 JLINK_WriteReg(R1, 0x00000400)  returns 0x00 (0000ms, 0792ms total)
T347C 001:490 JLINK_WriteReg(R2, 0x20000164)  returns 0x00 (0000ms, 0792ms total)
T347C 001:490 JLINK_WriteReg(R3, 0x00000000)  returns 0x00 (0000ms, 0792ms total)
T347C 001:490 JLINK_WriteReg(R4, 0x00000000)  returns 0x00 (0000ms, 0792ms total)
T347C 001:490 JLINK_WriteReg(R5, 0x00000000)  returns 0x00 (0000ms, 0792ms total)
T347C 001:490 JLINK_WriteReg(R6, 0x00000000)  returns 0x00 (0000ms, 0792ms total)
T347C 001:490 JLINK_WriteReg(R7, 0x00000000)  returns 0x00 (0000ms, 0792ms total)
T347C 001:490 JLINK_WriteReg(R8, 0x00000000)  returns 0x00 (0000ms, 0792ms total)
T347C 001:490 JLINK_WriteReg(R9, 0x20000160)  returns 0x00 (0000ms, 0792ms total)
T347C 001:490 JLINK_WriteReg(R10, 0x00000000)  returns 0x00 (0000ms, 0792ms total)
T347C 001:490 JLINK_WriteReg(R11, 0x00000000)  returns 0x00 (0000ms, 0792ms total)
T347C 001:490 JLINK_WriteReg(R12, 0x00000000)  returns 0x00 (0000ms, 0792ms total)
T347C 001:490 JLINK_WriteReg(R13 (SP), 0x20001000)  returns 0x00 (0000ms, 0792ms total)
T347C 001:490 JLINK_WriteReg(R14, 0x20000001)  returns 0x00 (0000ms, 0792ms total)
T347C 001:490 JLINK_WriteReg(R15 (PC), 0x200000F4)  returns 0x00 (0000ms, 0792ms total)
T347C 001:490 JLINK_WriteReg(XPSR, 0x01000000)  returns 0x00 (0001ms, 0793ms total)
T347C 001:491 JLINK_WriteReg(MSP, 0x20001000)  returns 0x00 (0000ms, 0793ms total)
T347C 001:491 JLINK_WriteReg(PSP, 0x20001000)  returns 0x00 (0000ms, 0793ms total)
T347C 001:491 JLINK_WriteReg(CFBP, 0x00000000)  returns 0x00 (0000ms, 0793ms total)
T347C 001:491 JLINK_SetBPEx(Addr = 0x20000000, Type = 0xFFFFFFF2)  returns 0x0000000A (0000ms, 0793ms total)
T347C 001:491 JLINK_Go() -- CPU_ReadMem(4 bytes @ 0xE0001000) (0003ms, 0796ms total)
T347C 001:494 JLINK_IsHalted()  returns FALSE (0001ms, 0797ms total)
T347C 001:545 JLINK_IsHalted() -- CPU_ReadMem(2 bytes @ 0x20000000)  returns TRUE (0004ms, 0800ms total)
T347C 001:549 JLINK_ReadReg(R15 (PC))  returns 0x20000000 (0000ms, 0796ms total)
T347C 001:549 JLINK_ClrBPEx(BPHandle = 0x0000000A)  returns 0x00 (0000ms, 0796ms total)
T347C 001:549 JLINK_ReadReg(R0)  returns 0x00000000 (0000ms, 0796ms total)
T347C 001:550 JLINK_WriteMem(0x20000164, 0x0400 Bytes, ...) - Data: 89 F8 10 BD 44 6F 20 61 6D 3A 20 20 20 20 36 30 ... -- CPU_WriteMem(1024 bytes @ 0x20000164)  returns 0x400 (0007ms, 0803ms total)
T347C 001:557 JLINK_WriteReg(R0, 0x08001800)  returns 0x00 (0000ms, 0803ms total)
T347C 001:557 JLINK_WriteReg(R1, 0x00000400)  returns 0x00 (0000ms, 0803ms total)
T347C 001:557 JLINK_WriteReg(R2, 0x20000164)  returns 0x00 (0000ms, 0803ms total)
T347C 001:557 JLINK_WriteReg(R3, 0x00000000)  returns 0x00 (0000ms, 0803ms total)
T347C 001:557 JLINK_WriteReg(R4, 0x00000000)  returns 0x00 (0000ms, 0803ms total)
T347C 001:557 JLINK_WriteReg(R5, 0x00000000)  returns 0x00 (0000ms, 0803ms total)
T347C 001:557 JLINK_WriteReg(R6, 0x00000000)  returns 0x00 (0000ms, 0803ms total)
T347C 001:557 JLINK_WriteReg(R7, 0x00000000)  returns 0x00 (0000ms, 0803ms total)
T347C 001:557 JLINK_WriteReg(R8, 0x00000000)  returns 0x00 (0000ms, 0803ms total)
T347C 001:557 JLINK_WriteReg(R9, 0x20000160)  returns 0x00 (0000ms, 0803ms total)
T347C 001:557 JLINK_WriteReg(R10, 0x00000000)  returns 0x00 (0000ms, 0803ms total)
T347C 001:557 JLINK_WriteReg(R11, 0x00000000)  returns 0x00 (0000ms, 0803ms total)
T347C 001:557 JLINK_WriteReg(R12, 0x00000000)  returns 0x00 (0000ms, 0803ms total)
T347C 001:557 JLINK_WriteReg(R13 (SP), 0x20001000)  returns 0x00 (0000ms, 0803ms total)
T347C 001:557 JLINK_WriteReg(R14, 0x20000001)  returns 0x00 (0000ms, 0803ms total)
T347C 001:557 JLINK_WriteReg(R15 (PC), 0x200000F4)  returns 0x00 (0000ms, 0803ms total)
T347C 001:557 JLINK_WriteReg(XPSR, 0x01000000)  returns 0x00 (0000ms, 0803ms total)
T347C 001:557 JLINK_WriteReg(MSP, 0x20001000)  returns 0x00 (0000ms, 0803ms total)
T347C 001:557 JLINK_WriteReg(PSP, 0x20001000)  returns 0x00 (0000ms, 0803ms total)
T347C 001:557 JLINK_WriteReg(CFBP, 0x00000000)  returns 0x00 (0000ms, 0803ms total)
T347C 001:557 JLINK_SetBPEx(Addr = 0x20000000, Type = 0xFFFFFFF2)  returns 0x0000000B (0000ms, 0803ms total)
T347C 001:557 JLINK_Go() -- CPU_ReadMem(4 bytes @ 0xE0001000) (0003ms, 0806ms total)
T347C 001:560 JLINK_IsHalted()  returns FALSE (0001ms, 0807ms total)
T347C 001:563 JLINK_IsHalted()  returns FALSE (0000ms, 0806ms total)
T347C 001:565 JLINK_IsHalted()  returns FALSE (0000ms, 0806ms total)
T347C 001:567 JLINK_IsHalted()  returns FALSE (0001ms, 0807ms total)
T347C 001:574 JLINK_IsHalted()  returns FALSE (0001ms, 0807ms total)
T347C 001:577 JLINK_IsHalted()  returns FALSE (0001ms, 0807ms total)
T347C 001:580 JLINK_IsHalted()  returns FALSE (0000ms, 0806ms total)
T347C 001:582 JLINK_IsHalted()  returns FALSE (0000ms, 0806ms total)
T347C 001:584 JLINK_IsHalted()  returns FALSE (0000ms, 0806ms total)
T347C 001:586 JLINK_IsHalted()  returns FALSE (0000ms, 0806ms total)
T347C 001:588 JLINK_IsHalted()  returns FALSE (0000ms, 0806ms total)
T347C 001:590 JLINK_IsHalted()  returns FALSE (0000ms, 0806ms total)
T347C 001:592 JLINK_IsHalted() -- CPU_ReadMem(2 bytes @ 0x20000000)  returns TRUE (0004ms, 0810ms total)
T347C 001:596 JLINK_ReadReg(R15 (PC))  returns 0x20000000 (0000ms, 0806ms total)
T347C 001:596 JLINK_ClrBPEx(BPHandle = 0x0000000B)  returns 0x00 (0000ms, 0806ms total)
T347C 001:596 JLINK_ReadReg(R0)  returns 0x00000000 (0000ms, 0806ms total)
T347C 001:597 JLINK_WriteMem(0x20000164, 0x0400 Bytes, ...) - Data: 3B F9 63 20 03 F0 38 F9 74 20 03 F0 35 F9 65 20 ... -- CPU_WriteMem(1024 bytes @ 0x20000164)  returns 0x400 (0007ms, 0813ms total)
T347C 001:604 JLINK_WriteReg(R0, 0x08001C00)  returns 0x00 (0000ms, 0813ms total)
T347C 001:604 JLINK_WriteReg(R1, 0x00000400)  returns 0x00 (0000ms, 0813ms total)
T347C 001:604 JLINK_WriteReg(R2, 0x20000164)  returns 0x00 (0000ms, 0813ms total)
T347C 001:604 JLINK_WriteReg(R3, 0x00000000)  returns 0x00 (0000ms, 0813ms total)
T347C 001:604 JLINK_WriteReg(R4, 0x00000000)  returns 0x00 (0000ms, 0813ms total)
T347C 001:604 JLINK_WriteReg(R5, 0x00000000)  returns 0x00 (0000ms, 0813ms total)
T347C 001:604 JLINK_WriteReg(R6, 0x00000000)  returns 0x00 (0000ms, 0813ms total)
T347C 001:604 JLINK_WriteReg(R7, 0x00000000)  returns 0x00 (0000ms, 0813ms total)
T347C 001:604 JLINK_WriteReg(R8, 0x00000000)  returns 0x00 (0000ms, 0813ms total)
T347C 001:604 JLINK_WriteReg(R9, 0x20000160)  returns 0x00 (0000ms, 0813ms total)
T347C 001:604 JLINK_WriteReg(R10, 0x00000000)  returns 0x00 (0000ms, 0813ms total)
T347C 001:604 JLINK_WriteReg(R11, 0x00000000)  returns 0x00 (0000ms, 0813ms total)
T347C 001:604 JLINK_WriteReg(R12, 0x00000000)  returns 0x00 (0000ms, 0813ms total)
T347C 001:604 JLINK_WriteReg(R13 (SP), 0x20001000)  returns 0x00 (0000ms, 0813ms total)
T347C 001:604 JLINK_WriteReg(R14, 0x20000001)  returns 0x00 (0000ms, 0813ms total)
T347C 001:604 JLINK_WriteReg(R15 (PC), 0x200000F4)  returns 0x00 (0000ms, 0813ms total)
T347C 001:604 JLINK_WriteReg(XPSR, 0x01000000)  returns 0x00 (0000ms, 0813ms total)
T347C 001:604 JLINK_WriteReg(MSP, 0x20001000)  returns 0x00 (0000ms, 0813ms total)
T347C 001:604 JLINK_WriteReg(PSP, 0x20001000)  returns 0x00 (0000ms, 0813ms total)
T347C 001:604 JLINK_WriteReg(CFBP, 0x00000000)  returns 0x00 (0000ms, 0813ms total)
T347C 001:604 JLINK_SetBPEx(Addr = 0x20000000, Type = 0xFFFFFFF2)  returns 0x0000000C (0000ms, 0813ms total)
T347C 001:604 JLINK_Go() -- CPU_ReadMem(4 bytes @ 0xE0001000) (0003ms, 0816ms total)
T347C 001:607 JLINK_IsHalted()  returns FALSE (0001ms, 0817ms total)
T347C 001:619 JLINK_IsHalted()  returns FALSE (0001ms, 0817ms total)
T347C 001:623 JLINK_IsHalted()  returns FALSE (0001ms, 0817ms total)
T347C 001:631 JLINK_IsHalted()  returns FALSE (0001ms, 0817ms total)
T347C 001:640 JLINK_IsHalted() -- CPU_ReadMem(2 bytes @ 0x20000000)  returns TRUE (0004ms, 0820ms total)
T347C 001:644 JLINK_ReadReg(R15 (PC))  returns 0x20000000 (0000ms, 0816ms total)
T347C 001:644 JLINK_ClrBPEx(BPHandle = 0x0000000C)  returns 0x00 (0000ms, 0816ms total)
T347C 001:644 JLINK_ReadReg(R0)  returns 0x00000000 (0000ms, 0816ms total)
T347C 001:645 JLINK_WriteMem(0x20000164, 0x0400 Bytes, ...) - Data: FE F7 0A F9 05 46 FE F7 0D FB 0A 21 90 FB F1 F2 ... -- CPU_WriteMem(1024 bytes @ 0x20000164)  returns 0x400 (0007ms, 0823ms total)
T347C 001:653 JLINK_WriteReg(R0, 0x08002000)  returns 0x00 (0000ms, 0823ms total)
T347C 001:653 JLINK_WriteReg(R1, 0x00000400)  returns 0x00 (0000ms, 0823ms total)
T347C 001:653 JLINK_WriteReg(R2, 0x20000164)  returns 0x00 (0000ms, 0823ms total)
T347C 001:653 JLINK_WriteReg(R3, 0x00000000)  returns 0x00 (0000ms, 0823ms total)
T347C 001:653 JLINK_WriteReg(R4, 0x00000000)  returns 0x00 (0000ms, 0823ms total)
T347C 001:653 JLINK_WriteReg(R5, 0x00000000)  returns 0x00 (0000ms, 0823ms total)
T347C 001:653 JLINK_WriteReg(R6, 0x00000000)  returns 0x00 (0000ms, 0823ms total)
T347C 001:653 JLINK_WriteReg(R7, 0x00000000)  returns 0x00 (0000ms, 0823ms total)
T347C 001:653 JLINK_WriteReg(R8, 0x00000000)  returns 0x00 (0000ms, 0823ms total)
T347C 001:653 JLINK_WriteReg(R9, 0x20000160)  returns 0x00 (0000ms, 0823ms total)
T347C 001:653 JLINK_WriteReg(R10, 0x00000000)  returns 0x00 (0000ms, 0823ms total)
T347C 001:653 JLINK_WriteReg(R11, 0x00000000)  returns 0x00 (0000ms, 0823ms total)
T347C 001:653 JLINK_WriteReg(R12, 0x00000000)  returns 0x00 (0000ms, 0823ms total)
T347C 001:653 JLINK_WriteReg(R13 (SP), 0x20001000)  returns 0x00 (0000ms, 0823ms total)
T347C 001:653 JLINK_WriteReg(R14, 0x20000001)  returns 0x00 (0000ms, 0823ms total)
T347C 001:653 JLINK_WriteReg(R15 (PC), 0x200000F4)  returns 0x00 (0000ms, 0823ms total)
T347C 001:653 JLINK_WriteReg(XPSR, 0x01000000)  returns 0x00 (0000ms, 0823ms total)
T347C 001:653 JLINK_WriteReg(MSP, 0x20001000)  returns 0x00 (0000ms, 0823ms total)
T347C 001:653 JLINK_WriteReg(PSP, 0x20001000)  returns 0x00 (0000ms, 0823ms total)
T347C 001:653 JLINK_WriteReg(CFBP, 0x00000000)  returns 0x00 (0000ms, 0823ms total)
T347C 001:653 JLINK_SetBPEx(Addr = 0x20000000, Type = 0xFFFFFFF2)  returns 0x0000000D (0000ms, 0823ms total)
T347C 001:653 JLINK_Go() -- CPU_ReadMem(4 bytes @ 0xE0001000) (0004ms, 0827ms total)
T347C 001:657 JLINK_IsHalted()  returns FALSE (0001ms, 0828ms total)
T347C 001:660 JLINK_IsHalted()  returns FALSE (0001ms, 0828ms total)
T347C 001:665 JLINK_IsHalted()  returns FALSE (0001ms, 0828ms total)
T347C 001:668 JLINK_IsHalted()  returns FALSE (0001ms, 0828ms total)
T347C 001:700 JLINK_IsHalted() -- CPU_ReadMem(2 bytes @ 0x20000000)  returns TRUE (0004ms, 0831ms total)
T347C 001:704 JLINK_ReadReg(R15 (PC))  returns 0x20000000 (0000ms, 0827ms total)
T347C 001:704 JLINK_ClrBPEx(BPHandle = 0x0000000D)  returns 0x00 (0000ms, 0827ms total)
T347C 001:704 JLINK_ReadReg(R0)  returns 0x00000000 (0000ms, 0827ms total)
T347C 001:705 JLINK_WriteMem(0x20000164, 0x0400 Bytes, ...) - Data: B1 FA 00 21 4F F4 80 00 00 F0 AC FA 10 BD 00 00 ... -- CPU_WriteMem(1024 bytes @ 0x20000164)  returns 0x400 (0007ms, 0834ms total)
T347C 001:712 JLINK_WriteReg(R0, 0x08002400)  returns 0x00 (0000ms, 0834ms total)
T347C 001:712 JLINK_WriteReg(R1, 0x00000400)  returns 0x00 (0000ms, 0834ms total)
T347C 001:712 JLINK_WriteReg(R2, 0x20000164)  returns 0x00 (0000ms, 0834ms total)
T347C 001:712 JLINK_WriteReg(R3, 0x00000000)  returns 0x00 (0000ms, 0834ms total)
T347C 001:712 JLINK_WriteReg(R4, 0x00000000)  returns 0x00 (0000ms, 0834ms total)
T347C 001:712 JLINK_WriteReg(R5, 0x00000000)  returns 0x00 (0000ms, 0834ms total)
T347C 001:712 JLINK_WriteReg(R6, 0x00000000)  returns 0x00 (0000ms, 0834ms total)
T347C 001:712 JLINK_WriteReg(R7, 0x00000000)  returns 0x00 (0000ms, 0834ms total)
T347C 001:712 JLINK_WriteReg(R8, 0x00000000)  returns 0x00 (0001ms, 0835ms total)
T347C 001:713 JLINK_WriteReg(R9, 0x20000160)  returns 0x00 (0000ms, 0835ms total)
T347C 001:713 JLINK_WriteReg(R10, 0x00000000)  returns 0x00 (0000ms, 0835ms total)
T347C 001:713 JLINK_WriteReg(R11, 0x00000000)  returns 0x00 (0000ms, 0835ms total)
T347C 001:713 JLINK_WriteReg(R12, 0x00000000)  returns 0x00 (0000ms, 0835ms total)
T347C 001:713 JLINK_WriteReg(R13 (SP), 0x20001000)  returns 0x00 (0000ms, 0835ms total)
T347C 001:713 JLINK_WriteReg(R14, 0x20000001)  returns 0x00 (0000ms, 0835ms total)
T347C 001:713 JLINK_WriteReg(R15 (PC), 0x200000F4)  returns 0x00 (0000ms, 0835ms total)
T347C 001:713 JLINK_WriteReg(XPSR, 0x01000000)  returns 0x00 (0000ms, 0835ms total)
T347C 001:713 JLINK_WriteReg(MSP, 0x20001000)  returns 0x00 (0000ms, 0835ms total)
T347C 001:713 JLINK_WriteReg(PSP, 0x20001000)  returns 0x00 (0000ms, 0835ms total)
T347C 001:713 JLINK_WriteReg(CFBP, 0x00000000)  returns 0x00 (0000ms, 0835ms total)
T347C 001:713 JLINK_SetBPEx(Addr = 0x20000000, Type = 0xFFFFFFF2)  returns 0x0000000E (0000ms, 0835ms total)
T347C 001:713 JLINK_Go() -- CPU_ReadMem(4 bytes @ 0xE0001000) (0003ms, 0838ms total)
T347C 001:716 JLINK_IsHalted()  returns FALSE (0001ms, 0839ms total)
T347C 001:723 JLINK_IsHalted()  returns FALSE (0001ms, 0839ms total)
T347C 001:727 JLINK_IsHalted()  returns FALSE (0001ms, 0839ms total)
T347C 001:744 JLINK_IsHalted()  returns FALSE (0001ms, 0839ms total)
T347C 001:753 JLINK_IsHalted() -- CPU_ReadMem(2 bytes @ 0x20000000)  returns TRUE (0004ms, 0842ms total)
T347C 001:757 JLINK_ReadReg(R15 (PC))  returns 0x20000000 (0000ms, 0838ms total)
T347C 001:757 JLINK_ClrBPEx(BPHandle = 0x0000000E)  returns 0x00 (0000ms, 0838ms total)
T347C 001:757 JLINK_ReadReg(R0)  returns 0x00000000 (0000ms, 0838ms total)
T347C 001:757 JLINK_WriteMem(0x20000164, 0x0400 Bytes, ...) - Data: 8D F8 03 00 03 20 8D F8 02 00 69 46 1C 48 FF F7 ... -- CPU_WriteMem(1024 bytes @ 0x20000164)  returns 0x400 (0008ms, 0846ms total)
T347C 001:765 JLINK_WriteReg(R0, 0x08002800)  returns 0x00 (0000ms, 0846ms total)
T347C 001:765 JLINK_WriteReg(R1, 0x00000400)  returns 0x00 (0000ms, 0846ms total)
T347C 001:765 JLINK_WriteReg(R2, 0x20000164)  returns 0x00 (0000ms, 0846ms total)
T347C 001:765 JLINK_WriteReg(R3, 0x00000000)  returns 0x00 (0000ms, 0846ms total)
T347C 001:765 JLINK_WriteReg(R4, 0x00000000)  returns 0x00 (0000ms, 0846ms total)
T347C 001:765 JLINK_WriteReg(R5, 0x00000000)  returns 0x00 (0000ms, 0846ms total)
T347C 001:765 JLINK_WriteReg(R6, 0x00000000)  returns 0x00 (0000ms, 0846ms total)
T347C 001:765 JLINK_WriteReg(R7, 0x00000000)  returns 0x00 (0000ms, 0846ms total)
T347C 001:765 JLINK_WriteReg(R8, 0x00000000)  returns 0x00 (0000ms, 0846ms total)
T347C 001:765 JLINK_WriteReg(R9, 0x20000160)  returns 0x00 (0000ms, 0846ms total)
T347C 001:765 JLINK_WriteReg(R10, 0x00000000)  returns 0x00 (0000ms, 0846ms total)
T347C 001:765 JLINK_WriteReg(R11, 0x00000000)  returns 0x00 (0000ms, 0846ms total)
T347C 001:765 JLINK_WriteReg(R12, 0x00000000)  returns 0x00 (0000ms, 0846ms total)
T347C 001:765 JLINK_WriteReg(R13 (SP), 0x20001000)  returns 0x00 (0000ms, 0846ms total)
T347C 001:765 JLINK_WriteReg(R14, 0x20000001)  returns 0x00 (0000ms, 0846ms total)
T347C 001:765 JLINK_WriteReg(R15 (PC), 0x200000F4)  returns 0x00 (0000ms, 0846ms total)
T347C 001:765 JLINK_WriteReg(XPSR, 0x01000000)  returns 0x00 (0000ms, 0846ms total)
T347C 001:765 JLINK_WriteReg(MSP, 0x20001000)  returns 0x00 (0000ms, 0846ms total)
T347C 001:765 JLINK_WriteReg(PSP, 0x20001000)  returns 0x00 (0000ms, 0846ms total)
T347C 001:765 JLINK_WriteReg(CFBP, 0x00000000)  returns 0x00 (0000ms, 0846ms total)
T347C 001:765 JLINK_SetBPEx(Addr = 0x20000000, Type = 0xFFFFFFF2)  returns 0x0000000F (0000ms, 0846ms total)
T347C 001:765 JLINK_Go() -- CPU_ReadMem(4 bytes @ 0xE0001000) (0004ms, 0850ms total)
T347C 001:769 JLINK_IsHalted()  returns FALSE (0000ms, 0850ms total)
T347C 001:778 JLINK_IsHalted()  returns FALSE (0001ms, 0851ms total)
T347C 001:793 JLINK_IsHalted()  returns FALSE (0001ms, 0851ms total)
T347C 001:796 JLINK_IsHalted()  returns FALSE (0000ms, 0850ms total)
T347C 001:799 JLINK_IsHalted()  returns FALSE (0001ms, 0851ms total)
T347C 001:802 JLINK_IsHalted() -- CPU_ReadMem(2 bytes @ 0x20000000)  returns TRUE (0004ms, 0854ms total)
T347C 001:806 JLINK_ReadReg(R15 (PC))  returns 0x20000000 (0000ms, 0850ms total)
T347C 001:806 JLINK_ClrBPEx(BPHandle = 0x0000000F)  returns 0x00 (0000ms, 0850ms total)
T347C 001:806 JLINK_ReadReg(R0)  returns 0x00000000 (0000ms, 0850ms total)
T347C 001:807 JLINK_WriteMem(0x20000164, 0x0400 Bytes, ...) - Data: 20 25 25 52 48 20 0D 0A 00 00 00 00 53 48 54 31 ... -- CPU_WriteMem(1024 bytes @ 0x20000164)  returns 0x400 (0007ms, 0857ms total)
T347C 001:814 JLINK_WriteReg(R0, 0x08002C00)  returns 0x00 (0000ms, 0857ms total)
T347C 001:814 JLINK_WriteReg(R1, 0x00000400)  returns 0x00 (0000ms, 0857ms total)
T347C 001:814 JLINK_WriteReg(R2, 0x20000164)  returns 0x00 (0000ms, 0857ms total)
T347C 001:814 JLINK_WriteReg(R3, 0x00000000)  returns 0x00 (0000ms, 0857ms total)
T347C 001:814 JLINK_WriteReg(R4, 0x00000000)  returns 0x00 (0000ms, 0857ms total)
T347C 001:814 JLINK_WriteReg(R5, 0x00000000)  returns 0x00 (0000ms, 0857ms total)
T347C 001:814 JLINK_WriteReg(R6, 0x00000000)  returns 0x00 (0001ms, 0858ms total)
T347C 001:815 JLINK_WriteReg(R7, 0x00000000)  returns 0x00 (0000ms, 0858ms total)
T347C 001:815 JLINK_WriteReg(R8, 0x00000000)  returns 0x00 (0000ms, 0858ms total)
T347C 001:815 JLINK_WriteReg(R9, 0x20000160)  returns 0x00 (0000ms, 0858ms total)
T347C 001:815 JLINK_WriteReg(R10, 0x00000000)  returns 0x00 (0000ms, 0858ms total)
T347C 001:815 JLINK_WriteReg(R11, 0x00000000)  returns 0x00 (0000ms, 0858ms total)
T347C 001:815 JLINK_WriteReg(R12, 0x00000000)  returns 0x00 (0000ms, 0858ms total)
T347C 001:815 JLINK_WriteReg(R13 (SP), 0x20001000)  returns 0x00 (0000ms, 0858ms total)
T347C 001:815 JLINK_WriteReg(R14, 0x20000001)  returns 0x00 (0000ms, 0858ms total)
T347C 001:815 JLINK_WriteReg(R15 (PC), 0x200000F4)  returns 0x00 (0000ms, 0858ms total)
T347C 001:815 JLINK_WriteReg(XPSR, 0x01000000)  returns 0x00 (0000ms, 0858ms total)
T347C 001:815 JLINK_WriteReg(MSP, 0x20001000)  returns 0x00 (0000ms, 0858ms total)
T347C 001:815 JLINK_WriteReg(PSP, 0x20001000)  returns 0x00 (0000ms, 0858ms total)
T347C 001:815 JLINK_WriteReg(CFBP, 0x00000000)  returns 0x00 (0000ms, 0858ms total)
